T4F70 000:004.365   SEGGER J-Link V7.86d Log File
T4F70 000:004.476   DLL Compiled: Mar 15 2023 13:51:13
T4F70 000:004.481   Logging started @ 2023-06-09 23:00
T4F70 000:004.485 - 4.487ms
T4F70 000:004.493 JLINK_SetWarnOutHandler(...)
T4F70 000:004.498 - 0.007ms
T4F70 000:004.503 JLINK_OpenEx(...)
T4F70 000:010.063   Firmware: J-Link V9 compiled May  7 2021 16:26:12
T4F70 000:010.701   Firmware: J-Link V9 compiled May  7 2021 16:26:12
T4F70 000:010.858   Decompressing FW timestamp took 127 us
T4F70 000:020.423   Hardware: V9.40
T4F70 000:020.482   S/N: 69406381
T4F70 000:020.489   OEM: SEGGER
T4F70 000:020.495   Feature(s): RDI, GDB, FlashDL, FlashBP, JFlash
T4F70 000:022.772   TELNET listener socket opened on port 19021
T4F70 000:022.925   WEBSRV WEBSRV_Init(): Starting webserver thread(s)
T4F70 000:023.096   WEBSRV Webserver running on local port 19080
T4F70 000:030.797 - 26.335ms returns "O.K."
T4F70 000:030.865 JLINK_GetEmuCaps()
T4F70 000:030.887 - 0.026ms returns 0xB9FF7BBF
T4F70 000:030.910 JLINK_TIF_GetAvailable(...)
T4F70 000:031.339 - 0.458ms
T4F70 000:031.374 JLINK_SetErrorOutHandler(...)
T4F70 000:031.379 - 0.007ms
T4F70 000:031.395 JLINK_ExecCommand("ProjectFile = "C:\Users\Sai\Desktop\Mosasaurus_Hero\Hero-chassis_Alpha\MDK-ARM\JLinkSettings.ini"", ...). 
T4F70 000:041.974   Ref file found at: C:\Keil_v5\ARM\Segger\JLinkDevices.ref
T4F70 000:042.097   REF file references invalid XML file: C:\Program Files\SEGGER\JLink\JLinkDevices.xml
T4F70 000:052.805   Device "ARM9" selected.
T4F70 000:053.619 - 22.231ms returns 0x00
T4F70 000:061.576 JLINK_ExecCommand("Device = STM32F407IGHx", ...). 
T4F70 000:074.412   Device "STM32F407IG" selected.
T4F70 000:075.196 - 13.596ms returns 0x00
T4F70 000:075.220 JLINK_ExecCommand("DisableConnectionTimeout", ...). 
T4F70 000:075.227 - 0.003ms returns 0x01
T4F70 000:075.234 JLINK_GetHardwareVersion()
T4F70 000:075.238 - 0.006ms returns 94000
T4F70 000:075.245 JLINK_GetDLLVersion()
T4F70 000:075.249 - 0.006ms returns 78604
T4F70 000:075.254 JLINK_GetOEMString(...)
T4F70 000:075.261 JLINK_GetFirmwareString(...)
T4F70 000:075.266 - 0.007ms
T4F70 000:101.519 JLINK_GetDLLVersion()
T4F70 000:101.551 - 0.033ms returns 78604
T4F70 000:101.557 JLINK_GetCompileDateTime()
T4F70 000:101.561 - 0.006ms
T4F70 000:109.628 JLINK_GetFirmwareString(...)
T4F70 000:109.681 - 0.055ms
T4F70 000:118.212 JLINK_GetHardwareVersion()
T4F70 000:118.243 - 0.033ms returns 94000
T4F70 000:124.367 JLINK_GetSN()
T4F70 000:124.392 - 0.027ms returns 69406381
T4F70 000:130.653 JLINK_GetOEMString(...)
T4F70 000:154.456 JLINK_TIF_Select(JLINKARM_TIF_SWD)
T4F70 000:155.962 - 1.518ms returns 0x00
T4F70 000:155.983 JLINK_HasError()
T4F70 000:155.997 JLINK_SetSpeed(500)
T4F70 000:156.194 - 0.205ms
T4F70 000:156.210 JLINK_GetId()
T4F70 000:168.308   InitTarget() start
T4F70 000:168.378    J-Link Script File: Executing InitTarget()
T4F70 000:177.481   SWD selected. Executing JTAG -> SWD switching sequence.
T4F70 000:188.946   DAP initialized successfully.
T4F70 000:213.764   InitTarget() end - Took 28.0ms
T4F70 000:222.943   Found SW-DP with ID 0x2BA01477
T4F70 000:236.458   DPIDR: 0x2BA01477
T4F70 000:249.101   CoreSight SoC-400 or earlier
T4F70 000:259.060   Scanning AP map to find all available APs
T4F70 000:268.849   AP[1]: Stopped AP scan as end of AP map has been reached
T4F70 000:277.932   AP[0]: AHB-AP (IDR: 0x24770011)
T4F70 000:289.255   Iterating through AP map to find AHB-AP to use
T4F70 000:299.028   AP[0]: Core found
T4F70 000:306.057   AP[0]: AHB-AP ROM base: 0xE00FF000
T4F70 000:314.703   CPUID register: 0x410FC241. Implementer code: 0x41 (ARM)
T4F70 000:325.080   Found Cortex-M4 r0p1, Little endian.
T4F70 000:325.971   -- Max. mem block: 0x00010E60
T4F70 000:327.002   CPU_ReadMem(4 bytes @ 0xE000EDF0)
T4F70 000:328.443   CPU_ReadMem(4 bytes @ 0xE0002000)
T4F70 000:338.470   FPUnit: 6 code (BP) slots and 2 literal slots
T4F70 000:338.519   CPU_ReadMem(4 bytes @ 0xE000EDFC)
T4F70 000:339.950   CPU_ReadMem(4 bytes @ 0xE0001000)
T4F70 000:341.185   CPU_WriteMem(4 bytes @ 0xE0001000)
T4F70 000:342.632   CPU_ReadMem(4 bytes @ 0xE000ED88)
T4F70 000:344.080   CPU_WriteMem(4 bytes @ 0xE000ED88)
T4F70 000:345.301   CPU_ReadMem(4 bytes @ 0xE000ED88)
T4F70 000:346.480   CPU_WriteMem(4 bytes @ 0xE000ED88)
T4F70 000:368.669   CoreSight components:
T4F70 000:376.852   ROMTbl[0] @ E00FF000
T4F70 000:376.898   CPU_ReadMem(64 bytes @ 0xE00FF000)
T4F70 000:380.259   CPU_ReadMem(32 bytes @ 0xE000EFE0)
T4F70 000:390.899   [0][0]: E000E000 CID B105E00D PID 000BB00C SCS-M7
T4F70 000:390.950   CPU_ReadMem(32 bytes @ 0xE0001FE0)
T4F70 000:404.523   [0][1]: E0001000 CID B105E00D PID 003BB002 DWT
T4F70 000:404.556   CPU_ReadMem(32 bytes @ 0xE0002FE0)
T4F70 000:419.165   [0][2]: E0002000 CID B105E00D PID 002BB003 FPB
T4F70 000:419.214   CPU_ReadMem(32 bytes @ 0xE0000FE0)
T4F70 000:431.561   [0][3]: E0000000 CID B105E00D PID 003BB001 ITM
T4F70 000:431.599   CPU_ReadMem(32 bytes @ 0xE0040FE0)
T4F70 000:449.725   [0][4]: E0040000 CID B105900D PID 000BB9A1 TPIU
T4F70 000:449.772   CPU_ReadMem(32 bytes @ 0xE0041FE0)
T4F70 000:461.366   [0][5]: E0041000 CID B105900D PID 000BB925 ETM
T4F70 000:462.064 - 305.867ms returns 0x2BA01477
T4F70 000:462.095 JLINK_GetDLLVersion()
T4F70 000:462.100 - 0.007ms returns 78604
T4F70 000:462.106 JLINK_CORE_GetFound()
T4F70 000:462.110 - 0.006ms returns 0xE0000FF
T4F70 000:462.119 JLINK_GetDebugInfo(0x100 = JLINKARM_ROM_TABLE_ADDR_INDEX)
T4F70 000:462.125   Value=0xE00FF000
T4F70 000:462.131 - 0.014ms returns 0
T4F70 000:469.650 JLINK_GetDebugInfo(0x100 = JLINKARM_ROM_TABLE_ADDR_INDEX)
T4F70 000:469.692   Value=0xE00FF000
T4F70 000:469.699 - 0.051ms returns 0
T4F70 000:469.705 JLINK_GetDebugInfo(0x101 = JLINKARM_DEBUG_INFO_ETM_ADDR_INDEX)
T4F70 000:469.710   Value=0xE0041000
T4F70 000:469.716 - 0.012ms returns 0
T4F70 000:469.721 JLINK_ReadMemEx(0xE0041FD0, 0x20 Bytes, Flags = 0x02000004)
T4F70 000:469.756   CPU_ReadMem(32 bytes @ 0xE0041FD0)
T4F70 000:472.153   Data:  04 00 00 00 00 00 00 00 00 00 00 00 00 00 00 00 ...
T4F70 000:472.203 - 2.484ms returns 32 (0x20)
T4F70 000:472.220 JLINK_GetDebugInfo(0x102 = JLINKARM_DEBUG_INFO_MTB_ADDR_INDEX)
T4F70 000:472.225   Value=0x00000000
T4F70 000:472.231 - 0.014ms returns 0
T4F70 000:472.237 JLINK_GetDebugInfo(0x103 = JLINKARM_DEBUG_INFO_TPIU_ADDR_INDEX)
T4F70 000:472.241   Value=0xE0040000
T4F70 000:472.247 - 0.012ms returns 0
T4F70 000:472.252 JLINK_GetDebugInfo(0x104 = JLINKARM_DEBUG_INFO_ITM_ADDR_INDEX)
T4F70 000:472.257   Value=0xE0000000
T4F70 000:472.262 - 0.012ms returns 0
T4F70 000:472.268 JLINK_GetDebugInfo(0x105 = JLINKARM_DEBUG_INFO_DWT_ADDR_INDEX)
T4F70 000:472.272   Value=0xE0001000
T4F70 000:472.278 - 0.012ms returns 0
T4F70 000:472.283 JLINK_GetDebugInfo(0x106 = JLINKARM_DEBUG_INFO_FPB_ADDR_INDEX)
T4F70 000:472.287   Value=0xE0002000
T4F70 000:472.293 - 0.012ms returns 0
T4F70 000:472.298 JLINK_GetDebugInfo(0x107 = JLINKARM_DEBUG_INFO_NVIC_ADDR_INDEX)
T4F70 000:472.303   Value=0xE000E000
T4F70 000:472.309 - 0.012ms returns 0
T4F70 000:472.314 JLINK_GetDebugInfo(0x10C = JLINKARM_DEBUG_INFO_DBG_ADDR_INDEX)
T4F70 000:472.318   Value=0xE000EDF0
T4F70 000:472.324 - 0.012ms returns 0
T4F70 000:472.329 JLINK_GetDebugInfo(0x01 = Unknown)
T4F70 000:472.342   Value=0x00000001
T4F70 000:472.348 - 0.021ms returns 0
T4F70 000:472.354 JLINK_ReadMemU32(0xE000ED00, 0x1 Items)
T4F70 000:472.373   CPU_ReadMem(4 bytes @ 0xE000ED00)
T4F70 000:473.754   Data:  41 C2 0F 41
T4F70 000:473.778   Debug reg: CPUID
T4F70 000:473.784 - 1.433ms returns 1 (0x1)
T4F70 000:473.795 JLINK_GetDebugInfo(0x10F = JLINKARM_DEBUG_INFO_HAS_CORTEX_M_SECURITY_EXT_INDEX)
T4F70 000:473.800   Value=0x00000000
T4F70 000:473.806 - 0.013ms returns 0
T4F70 000:473.812 JLINK_HasError()
T4F70 000:473.818 JLINK_SetResetType(JLINKARM_CM3_RESET_TYPE_NORMAL)
T4F70 000:473.823 - 0.006ms returns JLINKARM_CM3_RESET_TYPE_NORMAL
T4F70 000:473.828 JLINK_Reset()
T4F70 000:473.849   CPU is running
T4F70 000:473.857   CPU_WriteMem(4 bytes @ 0xE000EDF0)
T4F70 000:475.397   CPU is running
T4F70 000:475.438   CPU_WriteMem(4 bytes @ 0xE000EDFC)
T4F70 000:484.579   Reset: Halt core after reset via DEMCR.VC_CORERESET.
T4F70 000:497.145   Reset: Reset device via AIRCR.SYSRESETREQ.
T4F70 000:497.210   CPU is running
T4F70 000:497.225   CPU_WriteMem(4 bytes @ 0xE000ED0C)
T4F70 000:552.410   CPU_ReadMem(4 bytes @ 0xE000EDF0)
T4F70 000:553.903   CPU_ReadMem(4 bytes @ 0xE000EDF0)
T4F70 000:571.655   CPU_WriteMem(4 bytes @ 0xE000EDFC)
T4F70 000:578.805   CPU_ReadMem(4 bytes @ 0xE000EDF0)
T4F70 000:595.971   CPU_WriteMem(4 bytes @ 0xE0002000)
T4F70 000:597.238   CPU_ReadMem(4 bytes @ 0xE000EDFC)
T4F70 000:598.575   CPU_ReadMem(4 bytes @ 0xE0001000)
T4F70 000:600.044 - 126.234ms
T4F70 000:600.090 JLINK_Halt()
T4F70 000:600.100 - 0.014ms returns 0x00
T4F70 000:600.112 JLINK_ReadMemU32(0xE000EDF0, 0x1 Items)
T4F70 000:600.135   CPU_ReadMem(4 bytes @ 0xE000EDF0)
T4F70 000:601.662   Data:  03 00 03 00
T4F70 000:601.692   Debug reg: DHCSR
T4F70 000:601.705 - 1.597ms returns 1 (0x1)
T4F70 000:601.736 JLINK_WriteU32_64(0xE000EDF0, 0xA05F0003)
T4F70 000:601.750   Debug reg: DHCSR
T4F70 000:602.195   CPU_WriteMem(4 bytes @ 0xE000EDF0)
T4F70 000:603.697 - 1.983ms returns 0 (0x00000000)
T4F70 000:603.745 JLINK_WriteU32_64(0xE000EDFC, 0x01000000)
T4F70 000:603.758   Debug reg: DEMCR
T4F70 000:603.786   CPU_WriteMem(4 bytes @ 0xE000EDFC)
T4F70 000:605.107 - 1.384ms returns 0 (0x00000000)
T4F70 000:643.368 JLINK_GetHWStatus(...)
T4F70 000:643.614 - 0.262ms returns 0
T4F70 000:665.162 JLINK_GetNumBPUnits(Type = 0xFFFFFF00)
T4F70 000:665.197 - 0.037ms returns 0x06
T4F70 000:665.203 JLINK_GetNumBPUnits(Type = 0xF0)
T4F70 000:665.207 - 0.006ms returns 0x2000
T4F70 000:665.212 JLINK_GetNumWPUnits()
T4F70 000:665.217 - 0.006ms returns 4
T4F70 000:702.643 JLINK_GetSpeed()
T4F70 000:702.678 - 0.037ms returns 500
T4F70 000:723.116 JLINK_ReadMemU32(0xE000E004, 0x1 Items)
T4F70 000:723.166   CPU_ReadMem(4 bytes @ 0xE000E004)
T4F70 000:724.295   Data:  02 00 00 00
T4F70 000:724.328 - 1.333ms returns 1 (0x1)
T4F70 000:724.460 JLINK_ReadMemU32(0xE000E004, 0x1 Items)
T4F70 000:724.478   CPU_ReadMem(4 bytes @ 0xE000E004)
T4F70 000:725.601   Data:  02 00 00 00
T4F70 000:725.634 - 1.175ms returns 1 (0x1)
T4F70 000:725.643 JLINK_WriteMemEx(0xE0001000, 0x0000001C Bytes, Flags = 0x02000004)
T4F70 000:725.648   Data:  01 00 00 00 00 00 00 00 00 00 00 00 00 00 00 00 ...
T4F70 000:725.665   CPU_WriteMem(28 bytes @ 0xE0001000)
T4F70 000:727.673 - 2.062ms returns 0x1C
T4F70 000:727.731 JLINK_Halt()
T4F70 000:727.737 - 0.007ms returns 0x00
T4F70 000:727.742 JLINK_IsHalted()
T4F70 000:727.748 - 0.007ms returns TRUE
T4F70 000:731.783 JLINK_WriteMem(0x20000000, 0x184 Bytes, ...)
T4F70 000:731.794   Data:  00 BE 0A E0 0D 78 2D 06 68 40 08 24 40 00 00 D3 ...
T4F70 000:732.069   CPU_WriteMem(388 bytes @ 0x20000000)
T4F70 000:746.506 - 14.762ms returns 0x184
T4F70 000:746.632 JLINK_HasError()
T4F70 000:746.644 JLINK_WriteReg(R0, 0x08000000)
T4F70 000:746.658 - 0.017ms returns 0
T4F70 000:746.666 JLINK_WriteReg(R1, 0x00B71B00)
T4F70 000:746.673 - 0.009ms returns 0
T4F70 000:746.681 JLINK_WriteReg(R2, 0x00000001)
T4F70 000:746.687 - 0.009ms returns 0
T4F70 000:746.695 JLINK_WriteReg(R3, 0x00000000)
T4F70 000:746.701 - 0.009ms returns 0
T4F70 000:746.708 JLINK_WriteReg(R4, 0x00000000)
T4F70 000:746.715 - 0.009ms returns 0
T4F70 000:746.722 JLINK_WriteReg(R5, 0x00000000)
T4F70 000:746.728 - 0.009ms returns 0
T4F70 000:746.736 JLINK_WriteReg(R6, 0x00000000)
T4F70 000:746.742 - 0.009ms returns 0
T4F70 000:746.749 JLINK_WriteReg(R7, 0x00000000)
T4F70 000:746.756 - 0.009ms returns 0
T4F70 000:746.763 JLINK_WriteReg(R8, 0x00000000)
T4F70 000:746.780 - 0.019ms returns 0
T4F70 000:746.787 JLINK_WriteReg(R9, 0x20000180)
T4F70 000:746.793 - 0.009ms returns 0
T4F70 000:746.800 JLINK_WriteReg(R10, 0x00000000)
T4F70 000:746.807 - 0.009ms returns 0
T4F70 000:746.814 JLINK_WriteReg(R11, 0x00000000)
T4F70 000:746.821 - 0.009ms returns 0
T4F70 000:746.828 JLINK_WriteReg(R12, 0x00000000)
T4F70 000:746.834 - 0.014ms returns 0
T4F70 000:746.849 JLINK_WriteReg(R13 (SP), 0x20001000)
T4F70 000:746.857 - 0.011ms returns 0
T4F70 000:746.864 JLINK_WriteReg(R14, 0x20000001)
T4F70 000:746.870 - 0.009ms returns 0
T4F70 000:746.879 JLINK_WriteReg(R15 (PC), 0x20000054)
T4F70 000:746.887 - 0.011ms returns 0
T4F70 000:746.895 JLINK_WriteReg(XPSR, 0x01000000)
T4F70 000:746.901 - 0.009ms returns 0
T4F70 000:746.909 JLINK_WriteReg(MSP, 0x20001000)
T4F70 000:746.915 - 0.009ms returns 0
T4F70 000:746.922 JLINK_WriteReg(PSP, 0x20001000)
T4F70 000:746.929 - 0.009ms returns 0
T4F70 000:746.936 JLINK_WriteReg(CFBP, 0x00000000)
T4F70 000:746.942 - 0.009ms returns 0
T4F70 000:746.950 JLINK_SetBPEx(Addr = 0x20000000, Type = 0xFFFFFFF2)
T4F70 000:746.965   CPU_ReadMem(2 bytes @ 0x20000000)
T4F70 000:748.142 - 1.219ms returns 0x00000001
T4F70 000:748.179 JLINK_Go()
T4F70 000:748.193   CPU_WriteMem(2 bytes @ 0x20000000)
T4F70 000:749.390   CPU_ReadMem(4 bytes @ 0xE0001000)
T4F70 000:750.587   CPU_WriteMem(4 bytes @ 0xE0002008)
T4F70 000:750.609   CPU_WriteMem(4 bytes @ 0xE000200C)
T4F70 000:750.617   CPU_WriteMem(4 bytes @ 0xE0002010)
T4F70 000:750.624   CPU_WriteMem(4 bytes @ 0xE0002014)
T4F70 000:750.631   CPU_WriteMem(4 bytes @ 0xE0002018)
T4F70 000:750.637   CPU_WriteMem(4 bytes @ 0xE000201C)
T4F70 000:756.331   CPU_WriteMem(4 bytes @ 0xE0001004)
T4F70 000:772.051 - 23.927ms
T4F70 000:772.130 JLINK_IsHalted()
T4F70 000:788.408   CPU_ReadMem(2 bytes @ 0x20000000)
T4F70 000:789.661 - 17.545ms returns TRUE
T4F70 000:789.690 JLINK_ReadReg(R15 (PC))
T4F70 000:789.703 - 0.016ms returns 0x20000000
T4F70 000:789.712 JLINK_ClrBPEx(BPHandle = 0x00000001)
T4F70 000:789.720 - 0.011ms returns 0x00
T4F70 000:789.787 JLINK_ReadReg(R0)
T4F70 000:789.796 - 0.012ms returns 0x00000000
T4F70 000:790.587 JLINK_HasError()
T4F70 000:790.631 JLINK_WriteReg(R0, 0x08000000)
T4F70 000:790.644 - 0.016ms returns 0
T4F70 000:790.653 JLINK_WriteReg(R1, 0x00004000)
T4F70 000:790.660 - 0.010ms returns 0
T4F70 000:790.668 JLINK_WriteReg(R2, 0x000000FF)
T4F70 000:790.675 - 0.010ms returns 0
T4F70 000:790.683 JLINK_WriteReg(R3, 0x00000000)
T4F70 000:790.689 - 0.010ms returns 0
T4F70 000:790.697 JLINK_WriteReg(R4, 0x00000000)
T4F70 000:790.704 - 0.009ms returns 0
T4F70 000:790.711 JLINK_WriteReg(R5, 0x00000000)
T4F70 000:790.718 - 0.009ms returns 0
T4F70 000:790.725 JLINK_WriteReg(R6, 0x00000000)
T4F70 000:790.732 - 0.009ms returns 0
T4F70 000:790.740 JLINK_WriteReg(R7, 0x00000000)
T4F70 000:790.746 - 0.009ms returns 0
T4F70 000:790.754 JLINK_WriteReg(R8, 0x00000000)
T4F70 000:790.761 - 0.010ms returns 0
T4F70 000:790.769 JLINK_WriteReg(R9, 0x20000180)
T4F70 000:790.776 - 0.010ms returns 0
T4F70 000:790.783 JLINK_WriteReg(R10, 0x00000000)
T4F70 000:790.790 - 0.010ms returns 0
T4F70 000:790.798 JLINK_WriteReg(R11, 0x00000000)
T4F70 000:790.805 - 0.010ms returns 0
T4F70 000:790.812 JLINK_WriteReg(R12, 0x00000000)
T4F70 000:790.819 - 0.009ms returns 0
T4F70 000:790.826 JLINK_WriteReg(R13 (SP), 0x20001000)
T4F70 000:790.834 - 0.011ms returns 0
T4F70 000:790.842 JLINK_WriteReg(R14, 0x20000001)
T4F70 000:790.848 - 0.010ms returns 0
T4F70 000:790.856 JLINK_WriteReg(R15 (PC), 0x20000020)
T4F70 000:790.863 - 0.010ms returns 0
T4F70 000:790.871 JLINK_WriteReg(XPSR, 0x01000000)
T4F70 000:790.878 - 0.010ms returns 0
T4F70 000:790.886 JLINK_WriteReg(MSP, 0x20001000)
T4F70 000:790.892 - 0.010ms returns 0
T4F70 000:790.900 JLINK_WriteReg(PSP, 0x20001000)
T4F70 000:790.907 - 0.010ms returns 0
T4F70 000:790.915 JLINK_WriteReg(CFBP, 0x00000000)
T4F70 000:790.921 - 0.010ms returns 0
T4F70 000:790.929 JLINK_SetBPEx(Addr = 0x20000000, Type = 0xFFFFFFF2)
T4F70 000:790.939 - 0.012ms returns 0x00000002
T4F70 000:790.947 JLINK_Go()
T4F70 000:790.969   CPU_ReadMem(4 bytes @ 0xE0001000)
T4F70 000:806.550 - 15.631ms
T4F70 000:806.588 JLINK_IsHalted()
T4F70 000:807.842 - 1.276ms returns FALSE
T4F70 000:807.873 JLINK_HasError()
T4F70 000:826.661 JLINK_IsHalted()
T4F70 000:843.247   CPU_ReadMem(2 bytes @ 0x20000000)
T4F70 000:844.883 - 18.242ms returns TRUE
T4F70 000:844.923 JLINK_ReadReg(R15 (PC))
T4F70 000:844.940 - 0.021ms returns 0x20000000
T4F70 000:844.955 JLINK_ClrBPEx(BPHandle = 0x00000002)
T4F70 000:844.966 - 0.014ms returns 0x00
T4F70 000:845.034 JLINK_ReadReg(R0)
T4F70 000:845.045 - 0.014ms returns 0x00000000
T4F70 000:846.038 JLINK_HasError()
T4F70 000:846.054 JLINK_WriteReg(R0, 0x08004000)
T4F70 000:846.065 - 0.016ms returns 0
T4F70 000:846.076 JLINK_WriteReg(R1, 0x00004000)
T4F70 000:846.084 - 0.012ms returns 0
T4F70 000:846.093 JLINK_WriteReg(R2, 0x000000FF)
T4F70 000:846.102 - 0.012ms returns 0
T4F70 000:846.111 JLINK_WriteReg(R3, 0x00000000)
T4F70 000:846.119 - 0.011ms returns 0
T4F70 000:846.128 JLINK_WriteReg(R4, 0x00000000)
T4F70 000:846.136 - 0.011ms returns 0
T4F70 000:846.145 JLINK_WriteReg(R5, 0x00000000)
T4F70 000:846.153 - 0.012ms returns 0
T4F70 000:846.162 JLINK_WriteReg(R6, 0x00000000)
T4F70 000:846.170 - 0.011ms returns 0
T4F70 000:846.179 JLINK_WriteReg(R7, 0x00000000)
T4F70 000:846.187 - 0.011ms returns 0
T4F70 000:846.196 JLINK_WriteReg(R8, 0x00000000)
T4F70 000:846.205 - 0.012ms returns 0
T4F70 000:846.214 JLINK_WriteReg(R9, 0x20000180)
T4F70 000:846.222 - 0.012ms returns 0
T4F70 000:846.231 JLINK_WriteReg(R10, 0x00000000)
T4F70 000:846.239 - 0.012ms returns 0
T4F70 000:846.248 JLINK_WriteReg(R11, 0x00000000)
T4F70 000:846.256 - 0.013ms returns 0
T4F70 000:846.266 JLINK_WriteReg(R12, 0x00000000)
T4F70 000:846.274 - 0.011ms returns 0
T4F70 000:846.282 JLINK_WriteReg(R13 (SP), 0x20001000)
T4F70 000:846.291 - 0.012ms returns 0
T4F70 000:846.300 JLINK_WriteReg(R14, 0x20000001)
T4F70 000:846.308 - 0.011ms returns 0
T4F70 000:846.316 JLINK_WriteReg(R15 (PC), 0x20000020)
T4F70 000:846.325 - 0.011ms returns 0
T4F70 000:846.333 JLINK_WriteReg(XPSR, 0x01000000)
T4F70 000:846.341 - 0.011ms returns 0
T4F70 000:846.350 JLINK_WriteReg(MSP, 0x20001000)
T4F70 000:846.358 - 0.011ms returns 0
T4F70 000:846.366 JLINK_WriteReg(PSP, 0x20001000)
T4F70 000:846.374 - 0.011ms returns 0
T4F70 000:846.383 JLINK_WriteReg(CFBP, 0x00000000)
T4F70 000:846.390 - 0.011ms returns 0
T4F70 000:846.399 JLINK_SetBPEx(Addr = 0x20000000, Type = 0xFFFFFFF2)
T4F70 000:846.409 - 0.014ms returns 0x00000003
T4F70 000:846.419 JLINK_Go()
T4F70 000:846.449   CPU_ReadMem(4 bytes @ 0xE0001000)
T4F70 000:862.337 - 15.955ms
T4F70 000:862.389 JLINK_IsHalted()
T4F70 000:863.892 - 1.538ms returns FALSE
T4F70 000:863.939 JLINK_HasError()
T4F70 000:865.766 JLINK_IsHalted()
T4F70 000:867.280 - 1.533ms returns FALSE
T4F70 000:867.311 JLINK_HasError()
T4F70 000:868.723 JLINK_IsHalted()
T4F70 000:870.235 - 1.571ms returns FALSE
T4F70 000:870.338 JLINK_HasError()
T4F70 000:872.182 JLINK_IsHalted()
T4F70 000:873.837 - 1.681ms returns FALSE
T4F70 000:873.880 JLINK_HasError()
T4F70 000:875.647 JLINK_IsHalted()
T4F70 000:891.655   CPU_ReadMem(2 bytes @ 0x20000000)
T4F70 000:892.996 - 17.376ms returns TRUE
T4F70 000:893.036 JLINK_ReadReg(R15 (PC))
T4F70 000:893.051 - 0.019ms returns 0x20000000
T4F70 000:893.061 JLINK_ClrBPEx(BPHandle = 0x00000003)
T4F70 000:893.069 - 0.011ms returns 0x00
T4F70 000:893.077 JLINK_ReadReg(R0)
T4F70 000:893.084 - 0.010ms returns 0x00000000
T4F70 000:894.092 JLINK_HasError()
T4F70 000:894.115 JLINK_WriteReg(R0, 0x08008000)
T4F70 000:894.126 - 0.014ms returns 0
T4F70 000:894.134 JLINK_WriteReg(R1, 0x00004000)
T4F70 000:894.141 - 0.009ms returns 0
T4F70 000:894.147 JLINK_WriteReg(R2, 0x000000FF)
T4F70 000:894.153 - 0.008ms returns 0
T4F70 000:894.160 JLINK_WriteReg(R3, 0x00000000)
T4F70 000:894.166 - 0.008ms returns 0
T4F70 000:894.173 JLINK_WriteReg(R4, 0x00000000)
T4F70 000:894.179 - 0.009ms returns 0
T4F70 000:894.185 JLINK_WriteReg(R5, 0x00000000)
T4F70 000:894.194 - 0.011ms returns 0
T4F70 000:894.201 JLINK_WriteReg(R6, 0x00000000)
T4F70 000:894.207 - 0.008ms returns 0
T4F70 000:894.213 JLINK_WriteReg(R7, 0x00000000)
T4F70 000:894.219 - 0.008ms returns 0
T4F70 000:894.226 JLINK_WriteReg(R8, 0x00000000)
T4F70 000:894.232 - 0.009ms returns 0
T4F70 000:894.291 JLINK_WriteReg(R9, 0x20000180)
T4F70 000:894.301 - 0.013ms returns 0
T4F70 000:894.308 JLINK_WriteReg(R10, 0x00000000)
T4F70 000:894.314 - 0.009ms returns 0
T4F70 000:894.321 JLINK_WriteReg(R11, 0x00000000)
T4F70 000:894.327 - 0.008ms returns 0
T4F70 000:894.334 JLINK_WriteReg(R12, 0x00000000)
T4F70 000:894.340 - 0.009ms returns 0
T4F70 000:894.347 JLINK_WriteReg(R13 (SP), 0x20001000)
T4F70 000:894.354 - 0.009ms returns 0
T4F70 000:894.360 JLINK_WriteReg(R14, 0x20000001)
T4F70 000:894.365 - 0.008ms returns 0
T4F70 000:894.372 JLINK_WriteReg(R15 (PC), 0x20000020)
T4F70 000:894.377 - 0.008ms returns 0
T4F70 000:894.384 JLINK_WriteReg(XPSR, 0x01000000)
T4F70 000:894.389 - 0.008ms returns 0
T4F70 000:894.396 JLINK_WriteReg(MSP, 0x20001000)
T4F70 000:894.401 - 0.008ms returns 0
T4F70 000:894.407 JLINK_WriteReg(PSP, 0x20001000)
T4F70 000:894.413 - 0.008ms returns 0
T4F70 000:894.419 JLINK_WriteReg(CFBP, 0x00000000)
T4F70 000:894.424 - 0.008ms returns 0
T4F70 000:894.431 JLINK_SetBPEx(Addr = 0x20000000, Type = 0xFFFFFFF2)
T4F70 000:894.439 - 0.010ms returns 0x00000004
T4F70 000:894.445 JLINK_Go()
T4F70 000:894.465   CPU_ReadMem(4 bytes @ 0xE0001000)
T4F70 000:910.278 - 15.857ms
T4F70 000:910.324 JLINK_IsHalted()
T4F70 000:911.866 - 1.579ms returns FALSE
T4F70 000:911.922 JLINK_HasError()
T4F70 000:917.586 JLINK_IsHalted()
T4F70 000:919.189 - 1.626ms returns FALSE
T4F70 000:919.225 JLINK_HasError()
T4F70 000:920.577 JLINK_IsHalted()
T4F70 000:922.256 - 1.706ms returns FALSE
T4F70 000:922.300 JLINK_HasError()
T4F70 000:924.335 JLINK_IsHalted()
T4F70 000:940.425   CPU_ReadMem(2 bytes @ 0x20000000)
T4F70 000:941.829 - 17.540ms returns TRUE
T4F70 000:941.914 JLINK_ReadReg(R15 (PC))
T4F70 000:941.933 - 0.024ms returns 0x20000000
T4F70 000:941.945 JLINK_ClrBPEx(BPHandle = 0x00000004)
T4F70 000:941.956 - 0.015ms returns 0x00
T4F70 000:941.968 JLINK_ReadReg(R0)
T4F70 000:941.977 - 0.014ms returns 0x00000000
T4F70 000:945.249 JLINK_HasError()
T4F70 000:945.288 JLINK_WriteReg(R0, 0x00000001)
T4F70 000:945.307 - 0.025ms returns 0
T4F70 000:945.321 JLINK_WriteReg(R1, 0x00004000)
T4F70 000:945.334 - 0.018ms returns 0
T4F70 000:945.347 JLINK_WriteReg(R2, 0x000000FF)
T4F70 000:945.358 - 0.017ms returns 0
T4F70 000:945.372 JLINK_WriteReg(R3, 0x00000000)
T4F70 000:945.383 - 0.017ms returns 0
T4F70 000:945.397 JLINK_WriteReg(R4, 0x00000000)
T4F70 000:945.408 - 0.017ms returns 0
T4F70 000:945.421 JLINK_WriteReg(R5, 0x00000000)
T4F70 000:945.433 - 0.017ms returns 0
T4F70 000:945.445 JLINK_WriteReg(R6, 0x00000000)
T4F70 000:945.454 - 0.014ms returns 0
T4F70 000:945.465 JLINK_WriteReg(R7, 0x00000000)
T4F70 000:945.474 - 0.014ms returns 0
T4F70 000:945.485 JLINK_WriteReg(R8, 0x00000000)
T4F70 000:945.495 - 0.014ms returns 0
T4F70 000:945.505 JLINK_WriteReg(R9, 0x20000180)
T4F70 000:945.515 - 0.013ms returns 0
T4F70 000:945.525 JLINK_WriteReg(R10, 0x00000000)
T4F70 000:945.535 - 0.014ms returns 0
T4F70 000:945.546 JLINK_WriteReg(R11, 0x00000000)
T4F70 000:945.556 - 0.014ms returns 0
T4F70 000:945.566 JLINK_WriteReg(R12, 0x00000000)
T4F70 000:945.576 - 0.014ms returns 0
T4F70 000:945.586 JLINK_WriteReg(R13 (SP), 0x20001000)
T4F70 000:945.597 - 0.015ms returns 0
T4F70 000:945.608 JLINK_WriteReg(R14, 0x20000001)
T4F70 000:945.617 - 0.014ms returns 0
T4F70 000:945.628 JLINK_WriteReg(R15 (PC), 0x20000086)
T4F70 000:945.638 - 0.014ms returns 0
T4F70 000:945.649 JLINK_WriteReg(XPSR, 0x01000000)
T4F70 000:945.659 - 0.014ms returns 0
T4F70 000:945.669 JLINK_WriteReg(MSP, 0x20001000)
T4F70 000:945.679 - 0.013ms returns 0
T4F70 000:945.689 JLINK_WriteReg(PSP, 0x20001000)
T4F70 000:945.718 - 0.034ms returns 0
T4F70 000:945.730 JLINK_WriteReg(CFBP, 0x00000000)
T4F70 000:945.739 - 0.014ms returns 0
T4F70 000:945.751 JLINK_SetBPEx(Addr = 0x20000000, Type = 0xFFFFFFF2)
T4F70 000:945.762 - 0.016ms returns 0x00000005
T4F70 000:945.781 JLINK_Go()
T4F70 000:945.805   CPU_ReadMem(4 bytes @ 0xE0001000)
T4F70 000:961.217 - 15.474ms
T4F70 000:961.268 JLINK_IsHalted()
T4F70 000:977.360   CPU_ReadMem(2 bytes @ 0x20000000)
T4F70 000:978.530 - 17.293ms returns TRUE
T4F70 000:978.584 JLINK_ReadReg(R15 (PC))
T4F70 000:978.606 - 0.027ms returns 0x20000000
T4F70 000:978.620 JLINK_ClrBPEx(BPHandle = 0x00000005)
T4F70 000:978.634 - 0.018ms returns 0x00
T4F70 000:978.647 JLINK_ReadReg(R0)
T4F70 000:978.659 - 0.017ms returns 0x00000000
T4F70 001:045.040 JLINK_WriteMem(0x20000000, 0x184 Bytes, ...)
T4F70 001:045.058   Data:  00 BE 0A E0 0D 78 2D 06 68 40 08 24 40 00 00 D3 ...
T4F70 001:045.083   CPU_WriteMem(388 bytes @ 0x20000000)
T4F70 001:059.637 - 14.640ms returns 0x184
T4F70 001:059.796 JLINK_HasError()
T4F70 001:059.809 JLINK_WriteReg(R0, 0x08000000)
T4F70 001:059.824 - 0.018ms returns 0
T4F70 001:060.847 JLINK_WriteReg(R1, 0x00B71B00)
T4F70 001:060.870 - 0.025ms returns 0
T4F70 001:060.878 JLINK_WriteReg(R2, 0x00000002)
T4F70 001:060.885 - 0.009ms returns 0
T4F70 001:060.891 JLINK_WriteReg(R3, 0x00000000)
T4F70 001:060.897 - 0.009ms returns 0
T4F70 001:060.904 JLINK_WriteReg(R4, 0x00000000)
T4F70 001:060.910 - 0.008ms returns 0
T4F70 001:060.917 JLINK_WriteReg(R5, 0x00000000)
T4F70 001:060.923 - 0.008ms returns 0
T4F70 001:060.930 JLINK_WriteReg(R6, 0x00000000)
T4F70 001:060.936 - 0.008ms returns 0
T4F70 001:060.942 JLINK_WriteReg(R7, 0x00000000)
T4F70 001:060.948 - 0.008ms returns 0
T4F70 001:060.955 JLINK_WriteReg(R8, 0x00000000)
T4F70 001:060.961 - 0.009ms returns 0
T4F70 001:060.968 JLINK_WriteReg(R9, 0x20000180)
T4F70 001:060.974 - 0.008ms returns 0
T4F70 001:060.981 JLINK_WriteReg(R10, 0x00000000)
T4F70 001:060.986 - 0.008ms returns 0
T4F70 001:060.993 JLINK_WriteReg(R11, 0x00000000)
T4F70 001:060.999 - 0.008ms returns 0
T4F70 001:061.006 JLINK_WriteReg(R12, 0x00000000)
T4F70 001:061.012 - 0.008ms returns 0
T4F70 001:061.018 JLINK_WriteReg(R13 (SP), 0x20001000)
T4F70 001:061.026 - 0.010ms returns 0
T4F70 001:061.032 JLINK_WriteReg(R14, 0x20000001)
T4F70 001:061.038 - 0.008ms returns 0
T4F70 001:061.045 JLINK_WriteReg(R15 (PC), 0x20000054)
T4F70 001:061.051 - 0.008ms returns 0
T4F70 001:061.058 JLINK_WriteReg(XPSR, 0x01000000)
T4F70 001:061.064 - 0.009ms returns 0
T4F70 001:061.070 JLINK_WriteReg(MSP, 0x20001000)
T4F70 001:061.076 - 0.008ms returns 0
T4F70 001:061.083 JLINK_WriteReg(PSP, 0x20001000)
T4F70 001:061.089 - 0.008ms returns 0
T4F70 001:061.095 JLINK_WriteReg(CFBP, 0x00000000)
T4F70 001:061.101 - 0.008ms returns 0
T4F70 001:061.108 JLINK_SetBPEx(Addr = 0x20000000, Type = 0xFFFFFFF2)
T4F70 001:061.127   CPU_ReadMem(2 bytes @ 0x20000000)
T4F70 001:062.580 - 1.485ms returns 0x00000006
T4F70 001:062.602 JLINK_Go()
T4F70 001:062.615   CPU_WriteMem(2 bytes @ 0x20000000)
T4F70 001:064.398   CPU_ReadMem(4 bytes @ 0xE0001000)
T4F70 001:079.943 - 17.371ms
T4F70 001:079.985 JLINK_IsHalted()
T4F70 001:096.033   CPU_ReadMem(2 bytes @ 0x20000000)
T4F70 001:097.579 - 17.613ms returns TRUE
T4F70 001:097.622 JLINK_ReadReg(R15 (PC))
T4F70 001:097.639 - 0.020ms returns 0x20000000
T4F70 001:097.650 JLINK_ClrBPEx(BPHandle = 0x00000006)
T4F70 001:097.659 - 0.013ms returns 0x00
T4F70 001:097.668 JLINK_ReadReg(R0)
T4F70 001:097.677 - 0.012ms returns 0x00000000
T4F70 001:098.276 JLINK_WriteMem(0x20000184, 0x27C Bytes, ...)
T4F70 001:098.291   Data:  70 26 00 20 69 02 00 08 6D 3B 00 08 97 37 00 08 ...
T4F70 001:098.320   CPU_WriteMem(636 bytes @ 0x20000184)
T4F70 001:121.211 - 22.971ms returns 0x27C
T4F70 001:121.266 JLINK_WriteMem(0x20000400, 0x184 Bytes, ...)
T4F70 001:121.279   Data:  FE E7 FE E7 FE E7 FE E7 04 48 05 49 05 4A 06 4B ...
T4F70 001:121.323   CPU_WriteMem(388 bytes @ 0x20000400)
T4F70 001:135.766 - 14.560ms returns 0x184
T4F70 001:135.851 JLINK_HasError()
T4F70 001:135.876 JLINK_WriteReg(R0, 0x08000000)
T4F70 001:135.900 - 0.028ms returns 0
T4F70 001:135.910 JLINK_WriteReg(R1, 0x00000400)
T4F70 001:135.924 - 0.017ms returns 0
T4F70 001:135.933 JLINK_WriteReg(R2, 0x20000184)
T4F70 001:135.942 - 0.012ms returns 0
T4F70 001:135.956 JLINK_WriteReg(R3, 0x00000000)
T4F70 001:135.965 - 0.013ms returns 0
T4F70 001:135.975 JLINK_WriteReg(R4, 0x00000000)
T4F70 001:136.001 - 0.029ms returns 0
T4F70 001:136.010 JLINK_WriteReg(R5, 0x00000000)
T4F70 001:136.019 - 0.012ms returns 0
T4F70 001:136.175 JLINK_WriteReg(R6, 0x00000000)
T4F70 001:136.206 - 0.035ms returns 0
T4F70 001:136.218 JLINK_WriteReg(R7, 0x00000000)
T4F70 001:136.227 - 0.013ms returns 0
T4F70 001:136.237 JLINK_WriteReg(R8, 0x00000000)
T4F70 001:136.246 - 0.013ms returns 0
T4F70 001:136.256 JLINK_WriteReg(R9, 0x20000180)
T4F70 001:136.264 - 0.012ms returns 0
T4F70 001:136.274 JLINK_WriteReg(R10, 0x00000000)
T4F70 001:136.283 - 0.012ms returns 0
T4F70 001:136.292 JLINK_WriteReg(R11, 0x00000000)
T4F70 001:136.301 - 0.012ms returns 0
T4F70 001:136.310 JLINK_WriteReg(R12, 0x00000000)
T4F70 001:136.319 - 0.012ms returns 0
T4F70 001:136.328 JLINK_WriteReg(R13 (SP), 0x20001000)
T4F70 001:136.338 - 0.014ms returns 0
T4F70 001:136.348 JLINK_WriteReg(R14, 0x20000001)
T4F70 001:136.356 - 0.012ms returns 0
T4F70 001:136.366 JLINK_WriteReg(R15 (PC), 0x2000010C)
T4F70 001:136.374 - 0.012ms returns 0
T4F70 001:136.384 JLINK_WriteReg(XPSR, 0x01000000)
T4F70 001:136.393 - 0.012ms returns 0
T4F70 001:136.402 JLINK_WriteReg(MSP, 0x20001000)
T4F70 001:136.411 - 0.012ms returns 0
T4F70 001:136.420 JLINK_WriteReg(PSP, 0x20001000)
T4F70 001:136.429 - 0.012ms returns 0
T4F70 001:136.439 JLINK_WriteReg(CFBP, 0x00000000)
T4F70 001:136.447 - 0.012ms returns 0
T4F70 001:136.457 JLINK_SetBPEx(Addr = 0x20000000, Type = 0xFFFFFFF2)
T4F70 001:136.470 - 0.016ms returns 0x00000007
T4F70 001:136.480 JLINK_Go()
T4F70 001:136.506   CPU_ReadMem(4 bytes @ 0xE0001000)
T4F70 001:152.395 - 15.953ms
T4F70 001:152.448 JLINK_IsHalted()
T4F70 001:153.974 - 1.546ms returns FALSE
T4F70 001:154.008 JLINK_HasError()
T4F70 001:163.273 JLINK_IsHalted()
T4F70 001:179.449   CPU_ReadMem(2 bytes @ 0x20000000)
T4F70 001:180.958 - 17.727ms returns TRUE
T4F70 001:181.021 JLINK_ReadReg(R15 (PC))
T4F70 001:181.048 - 0.033ms returns 0x20000000
T4F70 001:181.065 JLINK_ClrBPEx(BPHandle = 0x00000007)
T4F70 001:181.080 - 0.021ms returns 0x00
T4F70 001:181.096 JLINK_ReadReg(R0)
T4F70 001:181.110 - 0.020ms returns 0x00000000
T4F70 001:182.685 JLINK_WriteMem(0x20000184, 0x27C Bytes, ...)
T4F70 001:182.718   Data:  11 F8 01 3B 11 F8 01 CB 48 BF 11 F8 01 2B 24 BF ...
T4F70 001:182.763   CPU_WriteMem(636 bytes @ 0x20000184)
T4F70 001:205.529 - 22.885ms returns 0x27C
T4F70 001:205.600 JLINK_WriteMem(0x20000400, 0x184 Bytes, ...)
T4F70 001:205.612   Data:  10 2A B8 EE C0 0A 30 EE 80 0A 85 ED 06 0A DC F8 ...
T4F70 001:205.649   CPU_WriteMem(388 bytes @ 0x20000400)
T4F70 001:220.065 - 14.507ms returns 0x184
T4F70 001:220.138 JLINK_HasError()
T4F70 001:220.219 JLINK_WriteReg(R0, 0x08000400)
T4F70 001:220.274 - 0.060ms returns 0
T4F70 001:220.311 JLINK_WriteReg(R1, 0x00000400)
T4F70 001:220.323 - 0.018ms returns 0
T4F70 001:220.336 JLINK_WriteReg(R2, 0x20000184)
T4F70 001:220.347 - 0.016ms returns 0
T4F70 001:220.360 JLINK_WriteReg(R3, 0x00000000)
T4F70 001:220.370 - 0.015ms returns 0
T4F70 001:220.382 JLINK_WriteReg(R4, 0x00000000)
T4F70 001:220.392 - 0.015ms returns 0
T4F70 001:220.404 JLINK_WriteReg(R5, 0x00000000)
T4F70 001:220.414 - 0.015ms returns 0
T4F70 001:220.426 JLINK_WriteReg(R6, 0x00000000)
T4F70 001:220.436 - 0.015ms returns 0
T4F70 001:220.447 JLINK_WriteReg(R7, 0x00000000)
T4F70 001:220.457 - 0.014ms returns 0
T4F70 001:220.469 JLINK_WriteReg(R8, 0x00000000)
T4F70 001:220.479 - 0.015ms returns 0
T4F70 001:220.490 JLINK_WriteReg(R9, 0x20000180)
T4F70 001:220.500 - 0.015ms returns 0
T4F70 001:220.512 JLINK_WriteReg(R10, 0x00000000)
T4F70 001:220.522 - 0.015ms returns 0
T4F70 001:220.533 JLINK_WriteReg(R11, 0x00000000)
T4F70 001:220.543 - 0.015ms returns 0
T4F70 001:220.555 JLINK_WriteReg(R12, 0x00000000)
T4F70 001:220.565 - 0.015ms returns 0
T4F70 001:220.576 JLINK_WriteReg(R13 (SP), 0x20001000)
T4F70 001:220.588 - 0.017ms returns 0
T4F70 001:220.600 JLINK_WriteReg(R14, 0x20000001)
T4F70 001:220.610 - 0.015ms returns 0
T4F70 001:220.622 JLINK_WriteReg(R15 (PC), 0x2000010C)
T4F70 001:220.640 - 0.038ms returns 0
T4F70 001:220.667 JLINK_WriteReg(XPSR, 0x01000000)
T4F70 001:220.677 - 0.014ms returns 0
T4F70 001:220.687 JLINK_WriteReg(MSP, 0x20001000)
T4F70 001:220.697 - 0.014ms returns 0
T4F70 001:220.708 JLINK_WriteReg(PSP, 0x20001000)
T4F70 001:220.717 - 0.014ms returns 0
T4F70 001:220.728 JLINK_WriteReg(CFBP, 0x00000000)
T4F70 001:220.737 - 0.014ms returns 0
T4F70 001:220.748 JLINK_SetBPEx(Addr = 0x20000000, Type = 0xFFFFFFF2)
T4F70 001:220.762 - 0.018ms returns 0x00000008
T4F70 001:220.773 JLINK_Go()
T4F70 001:220.816   CPU_ReadMem(4 bytes @ 0xE0001000)
T4F70 001:236.383 - 15.648ms
T4F70 001:236.440 JLINK_IsHalted()
T4F70 001:237.691 - 1.273ms returns FALSE
T4F70 001:237.725 JLINK_HasError()
T4F70 001:241.600 JLINK_IsHalted()
T4F70 001:257.747   CPU_ReadMem(2 bytes @ 0x20000000)
T4F70 001:259.093 - 17.529ms returns TRUE
T4F70 001:259.155 JLINK_ReadReg(R15 (PC))
T4F70 001:259.173 - 0.022ms returns 0x20000000
T4F70 001:259.187 JLINK_ClrBPEx(BPHandle = 0x00000008)
T4F70 001:259.197 - 0.013ms returns 0x00
T4F70 001:259.272 JLINK_ReadReg(R0)
T4F70 001:259.282 - 0.014ms returns 0x00000000
T4F70 001:260.069 JLINK_WriteMem(0x20000184, 0x27C Bytes, ...)
T4F70 001:260.087   Data:  02 EE 90 8A F8 EE E2 2A C6 ED 06 2A D4 ED 06 2A ...
T4F70 001:260.111   CPU_WriteMem(636 bytes @ 0x20000184)
T4F70 001:282.731 - 22.692ms returns 0x27C
T4F70 001:282.779 JLINK_WriteMem(0x20000400, 0x184 Bytes, ...)
T4F70 001:282.791   Data:  F0 EE 60 BA 18 EE 90 0A 08 F0 32 F8 53 EC 1B 2B ...
T4F70 001:282.827   CPU_WriteMem(388 bytes @ 0x20000400)
T4F70 001:297.173 - 14.433ms returns 0x184
T4F70 001:297.235 JLINK_HasError()
T4F70 001:297.313 JLINK_WriteReg(R0, 0x08000800)
T4F70 001:297.356 - 0.048ms returns 0
T4F70 001:297.368 JLINK_WriteReg(R1, 0x00000400)
T4F70 001:297.378 - 0.013ms returns 0
T4F70 001:297.387 JLINK_WriteReg(R2, 0x20000184)
T4F70 001:297.395 - 0.012ms returns 0
T4F70 001:297.404 JLINK_WriteReg(R3, 0x00000000)
T4F70 001:297.412 - 0.012ms returns 0
T4F70 001:297.421 JLINK_WriteReg(R4, 0x00000000)
T4F70 001:297.429 - 0.011ms returns 0
T4F70 001:297.439 JLINK_WriteReg(R5, 0x00000000)
T4F70 001:297.447 - 0.012ms returns 0
T4F70 001:297.456 JLINK_WriteReg(R6, 0x00000000)
T4F70 001:297.464 - 0.012ms returns 0
T4F70 001:297.473 JLINK_WriteReg(R7, 0x00000000)
T4F70 001:297.481 - 0.012ms returns 0
T4F70 001:297.490 JLINK_WriteReg(R8, 0x00000000)
T4F70 001:297.498 - 0.012ms returns 0
T4F70 001:297.507 JLINK_WriteReg(R9, 0x20000180)
T4F70 001:297.515 - 0.011ms returns 0
T4F70 001:297.524 JLINK_WriteReg(R10, 0x00000000)
T4F70 001:297.533 - 0.012ms returns 0
T4F70 001:297.541 JLINK_WriteReg(R11, 0x00000000)
T4F70 001:297.549 - 0.011ms returns 0
T4F70 001:297.559 JLINK_WriteReg(R12, 0x00000000)
T4F70 001:297.567 - 0.012ms returns 0
T4F70 001:297.576 JLINK_WriteReg(R13 (SP), 0x20001000)
T4F70 001:297.586 - 0.014ms returns 0
T4F70 001:297.595 JLINK_WriteReg(R14, 0x20000001)
T4F70 001:297.603 - 0.012ms returns 0
T4F70 001:297.612 JLINK_WriteReg(R15 (PC), 0x2000010C)
T4F70 001:297.621 - 0.012ms returns 0
T4F70 001:297.630 JLINK_WriteReg(XPSR, 0x01000000)
T4F70 001:297.638 - 0.012ms returns 0
T4F70 001:297.647 JLINK_WriteReg(MSP, 0x20001000)
T4F70 001:297.655 - 0.011ms returns 0
T4F70 001:297.664 JLINK_WriteReg(PSP, 0x20001000)
T4F70 001:297.672 - 0.011ms returns 0
T4F70 001:297.681 JLINK_WriteReg(CFBP, 0x00000000)
T4F70 001:297.689 - 0.011ms returns 0
T4F70 001:297.699 JLINK_SetBPEx(Addr = 0x20000000, Type = 0xFFFFFFF2)
T4F70 001:297.711 - 0.015ms returns 0x00000009
T4F70 001:297.720 JLINK_Go()
T4F70 001:297.746   CPU_ReadMem(4 bytes @ 0xE0001000)
T4F70 001:313.512 - 15.920ms
T4F70 001:313.668 JLINK_IsHalted()
T4F70 001:315.319 - 1.695ms returns FALSE
T4F70 001:315.385 JLINK_HasError()
T4F70 001:324.454 JLINK_IsHalted()
T4F70 001:340.512   CPU_ReadMem(2 bytes @ 0x20000000)
T4F70 001:341.974 - 17.543ms returns TRUE
T4F70 001:342.010 JLINK_ReadReg(R15 (PC))
T4F70 001:342.028 - 0.022ms returns 0x20000000
T4F70 001:342.040 JLINK_ClrBPEx(BPHandle = 0x00000009)
T4F70 001:342.060 - 0.024ms returns 0x00
T4F70 001:342.072 JLINK_ReadReg(R0)
T4F70 001:342.081 - 0.014ms returns 0x00000000
T4F70 001:343.001 JLINK_WriteMem(0x20000184, 0x27C Bytes, ...)
T4F70 001:343.019   Data:  07 F0 B4 FC 07 F0 26 FA 9C 49 B0 EE 69 0A C8 63 ...
T4F70 001:343.046   CPU_WriteMem(636 bytes @ 0x20000184)
T4F70 001:365.934 - 22.964ms returns 0x27C
T4F70 001:365.987 JLINK_WriteMem(0x20000400, 0x184 Bytes, ...)
T4F70 001:365.997   Data:  90 0C 00 20 18 05 00 20 D4 0D 00 20 18 0F 00 20 ...
T4F70 001:366.026   CPU_WriteMem(388 bytes @ 0x20000400)
T4F70 001:380.512 - 14.567ms returns 0x184
T4F70 001:380.581 JLINK_HasError()
T4F70 001:380.686 JLINK_WriteReg(R0, 0x08000C00)
T4F70 001:380.754 - 0.073ms returns 0
T4F70 001:380.767 JLINK_WriteReg(R1, 0x00000400)
T4F70 001:380.778 - 0.015ms returns 0
T4F70 001:380.789 JLINK_WriteReg(R2, 0x20000184)
T4F70 001:380.799 - 0.014ms returns 0
T4F70 001:380.809 JLINK_WriteReg(R3, 0x00000000)
T4F70 001:380.819 - 0.014ms returns 0
T4F70 001:380.830 JLINK_WriteReg(R4, 0x00000000)
T4F70 001:380.839 - 0.013ms returns 0
T4F70 001:380.850 JLINK_WriteReg(R5, 0x00000000)
T4F70 001:380.859 - 0.013ms returns 0
T4F70 001:380.869 JLINK_WriteReg(R6, 0x00000000)
T4F70 001:380.879 - 0.013ms returns 0
T4F70 001:380.889 JLINK_WriteReg(R7, 0x00000000)
T4F70 001:380.899 - 0.013ms returns 0
T4F70 001:380.909 JLINK_WriteReg(R8, 0x00000000)
T4F70 001:380.918 - 0.013ms returns 0
T4F70 001:380.929 JLINK_WriteReg(R9, 0x20000180)
T4F70 001:380.939 - 0.013ms returns 0
T4F70 001:380.949 JLINK_WriteReg(R10, 0x00000000)
T4F70 001:380.959 - 0.014ms returns 0
T4F70 001:380.969 JLINK_WriteReg(R11, 0x00000000)
T4F70 001:380.979 - 0.013ms returns 0
T4F70 001:380.989 JLINK_WriteReg(R12, 0x00000000)
T4F70 001:380.999 - 0.014ms returns 0
T4F70 001:381.009 JLINK_WriteReg(R13 (SP), 0x20001000)
T4F70 001:381.020 - 0.015ms returns 0
T4F70 001:381.031 JLINK_WriteReg(R14, 0x20000001)
T4F70 001:381.040 - 0.014ms returns 0
T4F70 001:381.051 JLINK_WriteReg(R15 (PC), 0x2000010C)
T4F70 001:381.061 - 0.014ms returns 0
T4F70 001:381.071 JLINK_WriteReg(XPSR, 0x01000000)
T4F70 001:381.081 - 0.014ms returns 0
T4F70 001:381.091 JLINK_WriteReg(MSP, 0x20001000)
T4F70 001:381.101 - 0.013ms returns 0
T4F70 001:381.111 JLINK_WriteReg(PSP, 0x20001000)
T4F70 001:381.121 - 0.013ms returns 0
T4F70 001:381.131 JLINK_WriteReg(CFBP, 0x00000000)
T4F70 001:381.141 - 0.014ms returns 0
T4F70 001:381.153 JLINK_SetBPEx(Addr = 0x20000000, Type = 0xFFFFFFF2)
T4F70 001:381.166 - 0.017ms returns 0x0000000A
T4F70 001:381.176 JLINK_Go()
T4F70 001:381.204   CPU_ReadMem(4 bytes @ 0xE0001000)
T4F70 001:396.472 - 15.335ms
T4F70 001:396.524 JLINK_IsHalted()
T4F70 001:397.875 - 1.370ms returns FALSE
T4F70 001:397.906 JLINK_HasError()
T4F70 001:403.285 JLINK_IsHalted()
T4F70 001:419.410   CPU_ReadMem(2 bytes @ 0x20000000)
T4F70 001:420.783 - 17.520ms returns TRUE
T4F70 001:420.838 JLINK_ReadReg(R15 (PC))
T4F70 001:420.858 - 0.024ms returns 0x20000000
T4F70 001:420.871 JLINK_ClrBPEx(BPHandle = 0x0000000A)
T4F70 001:420.882 - 0.016ms returns 0x00
T4F70 001:420.894 JLINK_ReadReg(R0)
T4F70 001:420.905 - 0.015ms returns 0x00000000
T4F70 001:422.427 JLINK_WriteMem(0x20000184, 0x27C Bytes, ...)
T4F70 001:422.457   Data:  70 47 00 20 70 47 00 00 90 0C 00 20 80 38 01 00 ...
T4F70 001:422.551   CPU_WriteMem(636 bytes @ 0x20000184)
T4F70 001:445.255 - 22.847ms returns 0x27C
T4F70 001:445.284 JLINK_WriteMem(0x20000400, 0x184 Bytes, ...)
T4F70 001:445.289   Data:  B0 EE 60 0A B4 28 08 DA 82 38 00 EE 10 0A DF ED ...
T4F70 001:445.309   CPU_WriteMem(388 bytes @ 0x20000400)
T4F70 001:459.678 - 14.425ms returns 0x184
T4F70 001:459.748 JLINK_HasError()
T4F70 001:459.757 JLINK_WriteReg(R0, 0x08001000)
T4F70 001:459.783 - 0.028ms returns 0
T4F70 001:459.789 JLINK_WriteReg(R1, 0x00000400)
T4F70 001:459.794 - 0.007ms returns 0
T4F70 001:459.799 JLINK_WriteReg(R2, 0x20000184)
T4F70 001:459.803 - 0.006ms returns 0
T4F70 001:459.808 JLINK_WriteReg(R3, 0x00000000)
T4F70 001:459.822 - 0.018ms returns 0
T4F70 001:459.830 JLINK_WriteReg(R4, 0x00000000)
T4F70 001:459.834 - 0.006ms returns 0
T4F70 001:459.842 JLINK_WriteReg(R5, 0x00000000)
T4F70 001:459.847 - 0.007ms returns 0
T4F70 001:459.852 JLINK_WriteReg(R6, 0x00000000)
T4F70 001:459.856 - 0.006ms returns 0
T4F70 001:459.864 JLINK_WriteReg(R7, 0x00000000)
T4F70 001:459.869 - 0.007ms returns 0
T4F70 001:459.970 JLINK_WriteReg(R8, 0x00000000)
T4F70 001:459.987 - 0.020ms returns 0
T4F70 001:459.994 JLINK_WriteReg(R9, 0x20000180)
T4F70 001:459.998 - 0.007ms returns 0
T4F70 001:460.004 JLINK_WriteReg(R10, 0x00000000)
T4F70 001:460.008 - 0.006ms returns 0
T4F70 001:460.013 JLINK_WriteReg(R11, 0x00000000)
T4F70 001:460.018 - 0.006ms returns 0
T4F70 001:460.023 JLINK_WriteReg(R12, 0x00000000)
T4F70 001:460.027 - 0.006ms returns 0
T4F70 001:460.032 JLINK_WriteReg(R13 (SP), 0x20001000)
T4F70 001:460.038 - 0.007ms returns 0
T4F70 001:460.043 JLINK_WriteReg(R14, 0x20000001)
T4F70 001:460.047 - 0.006ms returns 0
T4F70 001:460.052 JLINK_WriteReg(R15 (PC), 0x2000010C)
T4F70 001:460.057 - 0.006ms returns 0
T4F70 001:460.062 JLINK_WriteReg(XPSR, 0x01000000)
T4F70 001:460.067 - 0.006ms returns 0
T4F70 001:460.072 JLINK_WriteReg(MSP, 0x20001000)
T4F70 001:460.076 - 0.006ms returns 0
T4F70 001:460.081 JLINK_WriteReg(PSP, 0x20001000)
T4F70 001:460.086 - 0.006ms returns 0
T4F70 001:460.091 JLINK_WriteReg(CFBP, 0x00000000)
T4F70 001:460.095 - 0.006ms returns 0
T4F70 001:460.101 JLINK_SetBPEx(Addr = 0x20000000, Type = 0xFFFFFFF2)
T4F70 001:460.107 - 0.009ms returns 0x0000000B
T4F70 001:460.113 JLINK_Go()
T4F70 001:460.130   CPU_ReadMem(4 bytes @ 0xE0001000)
T4F70 001:476.007 - 15.918ms
T4F70 001:476.044 JLINK_IsHalted()
T4F70 001:477.476 - 1.454ms returns FALSE
T4F70 001:477.512 JLINK_HasError()
T4F70 001:483.577 JLINK_IsHalted()
T4F70 001:499.397   CPU_ReadMem(2 bytes @ 0x20000000)
T4F70 001:500.668 - 17.120ms returns TRUE
T4F70 001:500.732 JLINK_ReadReg(R15 (PC))
T4F70 001:500.756 - 0.030ms returns 0x20000000
T4F70 001:500.772 JLINK_ClrBPEx(BPHandle = 0x0000000B)
T4F70 001:500.786 - 0.020ms returns 0x00
T4F70 001:500.802 JLINK_ReadReg(R0)
T4F70 001:500.814 - 0.018ms returns 0x00000000
T4F70 001:503.614 JLINK_WriteMem(0x20000184, 0x27C Bytes, ...)
T4F70 001:503.665   Data:  B3 F5 00 5F 15 D0 72 B1 01 2A 0C D0 02 2A 0A D0 ...
T4F70 001:503.714   CPU_WriteMem(636 bytes @ 0x20000184)
T4F70 001:526.469 - 22.891ms returns 0x27C
T4F70 001:526.534 JLINK_WriteMem(0x20000400, 0x184 Bytes, ...)
T4F70 001:526.546   Data:  81 0A D0 ED 09 0A 30 EE C0 0A DF ED 0C 0A 10 EE ...
T4F70 001:526.579   CPU_WriteMem(388 bytes @ 0x20000400)
T4F70 001:541.219 - 14.717ms returns 0x184
T4F70 001:541.274 JLINK_HasError()
T4F70 001:541.286 JLINK_WriteReg(R0, 0x08001400)
T4F70 001:541.303 - 0.019ms returns 0
T4F70 001:541.310 JLINK_WriteReg(R1, 0x00000400)
T4F70 001:541.317 - 0.009ms returns 0
T4F70 001:541.324 JLINK_WriteReg(R2, 0x20000184)
T4F70 001:541.330 - 0.009ms returns 0
T4F70 001:541.337 JLINK_WriteReg(R3, 0x00000000)
T4F70 001:541.343 - 0.009ms returns 0
T4F70 001:541.351 JLINK_WriteReg(R4, 0x00000000)
T4F70 001:541.359 - 0.011ms returns 0
T4F70 001:541.370 JLINK_WriteReg(R5, 0x00000000)
T4F70 001:541.377 - 0.009ms returns 0
T4F70 001:541.524 JLINK_WriteReg(R6, 0x00000000)
T4F70 001:541.548 - 0.027ms returns 0
T4F70 001:541.557 JLINK_WriteReg(R7, 0x00000000)
T4F70 001:541.564 - 0.010ms returns 0
T4F70 001:541.572 JLINK_WriteReg(R8, 0x00000000)
T4F70 001:541.578 - 0.009ms returns 0
T4F70 001:541.585 JLINK_WriteReg(R9, 0x20000180)
T4F70 001:541.592 - 0.009ms returns 0
T4F70 001:541.599 JLINK_WriteReg(R10, 0x00000000)
T4F70 001:541.605 - 0.009ms returns 0
T4F70 001:541.613 JLINK_WriteReg(R11, 0x00000000)
T4F70 001:541.619 - 0.009ms returns 0
T4F70 001:541.626 JLINK_WriteReg(R12, 0x00000000)
T4F70 001:541.632 - 0.009ms returns 0
T4F70 001:541.640 JLINK_WriteReg(R13 (SP), 0x20001000)
T4F70 001:541.648 - 0.011ms returns 0
T4F70 001:541.655 JLINK_WriteReg(R14, 0x20000001)
T4F70 001:541.661 - 0.013ms returns 0
T4F70 001:541.676 JLINK_WriteReg(R15 (PC), 0x2000010C)
T4F70 001:541.683 - 0.009ms returns 0
T4F70 001:541.690 JLINK_WriteReg(XPSR, 0x01000000)
T4F70 001:541.696 - 0.009ms returns 0
T4F70 001:541.704 JLINK_WriteReg(MSP, 0x20001000)
T4F70 001:541.710 - 0.009ms returns 0
T4F70 001:541.717 JLINK_WriteReg(PSP, 0x20001000)
T4F70 001:541.723 - 0.009ms returns 0
T4F70 001:541.731 JLINK_WriteReg(CFBP, 0x00000000)
T4F70 001:541.737 - 0.009ms returns 0
T4F70 001:541.745 JLINK_SetBPEx(Addr = 0x20000000, Type = 0xFFFFFFF2)
T4F70 001:541.754 - 0.012ms returns 0x0000000C
T4F70 001:541.762 JLINK_Go()
T4F70 001:541.782   CPU_ReadMem(4 bytes @ 0xE0001000)
T4F70 001:557.764 - 16.052ms
T4F70 001:557.835 JLINK_IsHalted()
T4F70 001:559.284 - 1.473ms returns FALSE
T4F70 001:559.320 JLINK_HasError()
T4F70 001:562.863 JLINK_IsHalted()
T4F70 001:578.899   CPU_ReadMem(2 bytes @ 0x20000000)
T4F70 001:580.298 - 17.494ms returns TRUE
T4F70 001:580.410 JLINK_ReadReg(R15 (PC))
T4F70 001:580.440 - 0.037ms returns 0x20000000
T4F70 001:580.459 JLINK_ClrBPEx(BPHandle = 0x0000000C)
T4F70 001:580.475 - 0.023ms returns 0x00
T4F70 001:580.493 JLINK_ReadReg(R0)
T4F70 001:580.508 - 0.023ms returns 0x00000000
T4F70 001:581.837 JLINK_WriteMem(0x20000184, 0x27C Bytes, ...)
T4F70 001:581.865   Data:  1C 32 CB 69 B3 B9 D0 F8 0C 32 93 43 C0 F8 0C 32 ...
T4F70 001:581.905   CPU_WriteMem(636 bytes @ 0x20000184)
T4F70 001:604.659 - 22.863ms returns 0x27C
T4F70 001:604.713 JLINK_WriteMem(0x20000400, 0x184 Bytes, ...)
T4F70 001:604.721   Data:  28 46 00 F0 99 F9 B0 07 06 D5 28 68 C0 68 80 07 ...
T4F70 001:604.751   CPU_WriteMem(388 bytes @ 0x20000400)
T4F70 001:619.455 - 14.778ms returns 0x184
T4F70 001:619.517 JLINK_HasError()
T4F70 001:619.531 JLINK_WriteReg(R0, 0x08001800)
T4F70 001:619.571 - 0.043ms returns 0
T4F70 001:619.580 JLINK_WriteReg(R1, 0x00000400)
T4F70 001:619.587 - 0.011ms returns 0
T4F70 001:619.596 JLINK_WriteReg(R2, 0x20000184)
T4F70 001:619.603 - 0.010ms returns 0
T4F70 001:619.611 JLINK_WriteReg(R3, 0x00000000)
T4F70 001:619.619 - 0.010ms returns 0
T4F70 001:619.627 JLINK_WriteReg(R4, 0x00000000)
T4F70 001:619.634 - 0.010ms returns 0
T4F70 001:619.642 JLINK_WriteReg(R5, 0x00000000)
T4F70 001:619.649 - 0.010ms returns 0
T4F70 001:619.662 JLINK_WriteReg(R6, 0x00000000)
T4F70 001:619.670 - 0.011ms returns 0
T4F70 001:619.852 JLINK_WriteReg(R7, 0x00000000)
T4F70 001:619.880 - 0.031ms returns 0
T4F70 001:619.890 JLINK_WriteReg(R8, 0x00000000)
T4F70 001:619.899 - 0.012ms returns 0
T4F70 001:619.907 JLINK_WriteReg(R9, 0x20000180)
T4F70 001:619.914 - 0.010ms returns 0
T4F70 001:619.923 JLINK_WriteReg(R10, 0x00000000)
T4F70 001:619.930 - 0.010ms returns 0
T4F70 001:619.938 JLINK_WriteReg(R11, 0x00000000)
T4F70 001:619.945 - 0.010ms returns 0
T4F70 001:619.954 JLINK_WriteReg(R12, 0x00000000)
T4F70 001:619.961 - 0.010ms returns 0
T4F70 001:619.969 JLINK_WriteReg(R13 (SP), 0x20001000)
T4F70 001:619.978 - 0.012ms returns 0
T4F70 001:619.986 JLINK_WriteReg(R14, 0x20000001)
T4F70 001:619.993 - 0.011ms returns 0
T4F70 001:620.002 JLINK_WriteReg(R15 (PC), 0x2000010C)
T4F70 001:620.009 - 0.011ms returns 0
T4F70 001:620.017 JLINK_WriteReg(XPSR, 0x01000000)
T4F70 001:620.025 - 0.010ms returns 0
T4F70 001:620.033 JLINK_WriteReg(MSP, 0x20001000)
T4F70 001:620.040 - 0.010ms returns 0
T4F70 001:620.048 JLINK_WriteReg(PSP, 0x20001000)
T4F70 001:620.055 - 0.010ms returns 0
T4F70 001:620.064 JLINK_WriteReg(CFBP, 0x00000000)
T4F70 001:620.071 - 0.010ms returns 0
T4F70 001:620.079 JLINK_SetBPEx(Addr = 0x20000000, Type = 0xFFFFFFF2)
T4F70 001:620.090 - 0.014ms returns 0x0000000D
T4F70 001:620.099 JLINK_Go()
T4F70 001:620.122   CPU_ReadMem(4 bytes @ 0xE0001000)
T4F70 001:635.993 - 15.940ms
T4F70 001:636.061 JLINK_IsHalted()
T4F70 001:637.348 - 1.339ms returns FALSE
T4F70 001:637.417 JLINK_HasError()
T4F70 001:638.537 JLINK_IsHalted()
T4F70 001:639.861 - 1.352ms returns FALSE
T4F70 001:639.904 JLINK_HasError()
T4F70 001:641.525 JLINK_IsHalted()
T4F70 001:657.571   CPU_ReadMem(2 bytes @ 0x20000000)
T4F70 001:658.824 - 17.334ms returns TRUE
T4F70 001:658.883 JLINK_ReadReg(R15 (PC))
T4F70 001:658.905 - 0.027ms returns 0x20000000
T4F70 001:658.918 JLINK_ClrBPEx(BPHandle = 0x0000000D)
T4F70 001:658.931 - 0.017ms returns 0x00
T4F70 001:658.944 JLINK_ReadReg(R0)
T4F70 001:658.955 - 0.016ms returns 0x00000000
T4F70 001:660.118 JLINK_WriteMem(0x20000184, 0x27C Bytes, ...)
T4F70 001:660.143   Data:  84 F8 20 60 D2 E7 20 68 40 68 80 07 EF D4 20 7E ...
T4F70 001:660.179   CPU_WriteMem(636 bytes @ 0x20000184)
T4F70 001:682.975 - 22.900ms returns 0x27C
T4F70 001:683.038 JLINK_WriteMem(0x20000400, 0x184 Bytes, ...)
T4F70 001:683.052   Data:  00 B1 A6 71 51 49 68 46 05 F0 5C FA 02 99 10 29 ...
T4F70 001:683.092   CPU_WriteMem(388 bytes @ 0x20000400)
T4F70 001:697.750 - 14.768ms returns 0x184
T4F70 001:697.830 JLINK_HasError()
T4F70 001:697.843 JLINK_WriteReg(R0, 0x08001C00)
T4F70 001:697.860 - 0.020ms returns 0
T4F70 001:697.868 JLINK_WriteReg(R1, 0x00000400)
T4F70 001:697.874 - 0.010ms returns 0
T4F70 001:697.882 JLINK_WriteReg(R2, 0x20000184)
T4F70 001:697.888 - 0.009ms returns 0
T4F70 001:698.050 JLINK_WriteReg(R3, 0x00000000)
T4F70 001:698.074 - 0.027ms returns 0
T4F70 001:698.083 JLINK_WriteReg(R4, 0x00000000)
T4F70 001:698.090 - 0.010ms returns 0
T4F70 001:698.098 JLINK_WriteReg(R5, 0x00000000)
T4F70 001:698.104 - 0.009ms returns 0
T4F70 001:698.112 JLINK_WriteReg(R6, 0x00000000)
T4F70 001:698.118 - 0.009ms returns 0
T4F70 001:698.125 JLINK_WriteReg(R7, 0x00000000)
T4F70 001:698.131 - 0.009ms returns 0
T4F70 001:698.139 JLINK_WriteReg(R8, 0x00000000)
T4F70 001:698.145 - 0.009ms returns 0
T4F70 001:698.152 JLINK_WriteReg(R9, 0x20000180)
T4F70 001:698.159 - 0.009ms returns 0
T4F70 001:698.166 JLINK_WriteReg(R10, 0x00000000)
T4F70 001:698.172 - 0.009ms returns 0
T4F70 001:698.179 JLINK_WriteReg(R11, 0x00000000)
